!Murata Part Number: GJM1555C1H1R0WB01
!These Parameters are Measured in Series Mode Connection
!       o--ll--o
!Port1            Port2
!       o------o
!Operation Temp=25[degC], DC Bias Voltage=0[V]
!Freq. Start=100[MHz] Stop=20[GHz], 401[Steps]
!Data Generated on Jan 10, 2017
# Hz S RI R 50
!Freq.(Hz) S11(Real) S11(Imag) S21(Real) S21(Imag) S12(Real) S12(Imag) S22(Real) S22(Imag)
1.0E8 0.996057406634877 -0.06259384393144173 0.003942593365123094 0.06259384393144173 0.003942593365123094 0.06259384393144173 0.996057406634877 -0.06259384393144173
1.4975E8 0.9911983584177 -0.09329500747986774 0.008801641582300082 0.09329500747986774 0.008801641582300082 0.09329500747986774 0.9911983584177 -0.09329500747986774
1.995E8 0.9844760803602678 -0.12347988071825099 0.01552391963973206 0.12347988071825099 0.01552391963973206 0.12347988071825099 0.9844760803602678 -0.12347988071825099
2.4925E8 0.9759606371751315 -0.15299109356021637 0.024039362824868477 0.15299109356021637 0.024039362824868477 0.15299109356021637 0.9759606371751315 -0.15299109356021637
2.99E8 0.9657389043158232 -0.18168270536218112 0.03426109568417687 0.18168270536218112 0.03426109568417687 0.18168270536218112 0.9657389043158232 -0.18168270536218112
3.4875E8 0.9539124203498461 -0.2094222731975247 0.046087579650153844 0.2094222731975247 0.046087579650153844 0.2094222731975247 0.9539124203498461 -0.2094222731975247
3.985E8 0.9405949753093337 -0.2360924704795546 0.05940502469066651 0.2360924704795546 0.05940502469066651 0.2360924704795546 0.9405949753093337 -0.2360924704795546
4.4825E8 0.9259100369000023 -0.26159222804979543 0.07408996309999756 0.26159222804979543 0.07408996309999756 0.26159222804979543 0.9259100369000023 -0.26159222804979543
4.98E8 0.9099881158580062 -0.28583739410222436 0.09001188414199378 0.28583739410222436 0.09001188414199378 0.28583739410222436 0.9099881158580062 -0.28583739410222436
5.4775E8 0.892964165300143 -0.3087609314769917 0.10703583469985704 0.3087609314769917 0.10703583469985704 0.3087609314769917 0.892964165300143 -0.3087609314769917
5.975E8 0.8749750977297067 -0.33031268957550347 0.12502490227029334 0.33031268957550347 0.12502490227029334 0.33031268957550347 0.8749750977297067 -0.33031268957550347
6.4725E8 0.8561574888151446 -0.35045880253897455 0.14384251118485522 0.35045880253897455 0.14384251118485522 0.35045880253897455 0.8561574888151446 -0.35045880253897455
6.97E8 0.8366455206142556 -0.36918077500117674 0.1633544793857444 0.36918077500117674 0.1633544793857444 0.36918077500117674 0.8366455206142556 -0.36918077500117674
7.4675E8 0.8165691999629977 -0.3864743217292222 0.18343080003700218 0.3864743217292222 0.18343080003700218 0.3864743217292222 0.8165691999629977 -0.3864743217292222
7.965E8 0.7960528714813425 -0.4023480282252938 0.20394712851865765 0.4023480282252938 0.20394712851865765 0.4023480282252938 0.7960528714813425 -0.4023480282252938
8.4625E8 0.7752140299953227 -0.4168218965555105 0.2247859700046774 0.4168218965555105 0.2247859700046774 0.4168218965555105 0.7752140299953227 -0.4168218965555105
8.96E8 0.7541624247600025 -0.4299258351209061 0.24583757523999758 0.4299258351209061 0.24583757523999758 0.4299258351209061 0.7541624247600025 -0.4299258351209061
9.4575E8 0.7329994380248314 -0.4416981436502736 0.26700056197516864 0.4416981436502736 0.26700056197516864 0.4416981436502736 0.7329994380248314 -0.4416981436502736
9.955E8 0.7118177132861421 -0.4521840361913118 0.2881822867138579 0.4521840361913118 0.2881822867138579 0.4521840361913118 0.7118177132861421 -0.4521840361913118
1.04525E9 0.690701003892859 -0.46143423601749717 0.3092989961071409 0.46143423601749717 0.3092989961071409 0.46143423601749717 0.690701003892859 -0.46143423601749717
1.095E9 0.6697242102381781 -0.46950366772828506 0.3302757897618219 0.46950366772828506 0.3302757897618219 0.46950366772828506 0.6697242102381781 -0.46950366772828506
1.14475E9 0.64895357322293 -0.4764502638249973 0.35104642677707 0.4764502638249973 0.35104642677707 0.4764502638249973 0.64895357322293 -0.4764502638249973
1.1945E9 0.6284469926201947 -0.4823338959749494 0.37155300737980534 0.4823338959749494 0.37155300737980534 0.4823338959749494 0.6284469926201947 -0.4823338959749494
1.24425E9 0.6082544410134048 -0.4872154351849753 0.3917455589865952 0.4872154351849753 0.3917455589865952 0.4872154351849753 0.6082544410134048 -0.4872154351849753
1.294E9 0.5884184467609186 -0.4911559402406195 0.41158155323908135 0.4911559402406195 0.41158155323908135 0.4911559402406195 0.5884184467609186 -0.4911559402406195
1.34375E9 0.5689746226466524 -0.4942159699973866 0.43102537735334756 0.4942159699973866 0.43102537735334756 0.4942159699973866 0.5689746226466524 -0.4942159699973866
1.3935E9 0.5499522202534985 -0.4964550123487954 0.45004777974650145 0.4964550123487954 0.45004777974650145 0.4964550123487954 0.5499522202534985 -0.4964550123487954
1.44325E9 0.5313746934464773 -0.4979310208220359 0.46862530655352275 0.4979310208220359 0.46862530655352275 0.4979310208220359 0.5313746934464773 -0.4979310208220359
1.493E9 0.5132602575328383 -0.49870004862901063 0.48673974246716173 0.49870004862901063 0.48673974246716173 0.49870004862901063 0.5132602575328383 -0.49870004862901063
1.54275E9 0.49562243358129443 -0.4988159694888807 0.5043775664187055 0.4988159694888807 0.5043775664187055 0.4988159694888807 0.49562243358129443 -0.4988159694888807
1.5925E9 0.4784705699765149 -0.49833027450497025 0.5215294300234851 0.49833027450497025 0.5215294300234851 0.49833027450497025 0.4784705699765149 -0.49833027450497025
1.64225E9 0.4618103355336362 -0.49729193470369876 0.5381896644663636 0.49729193470369876 0.5381896644663636 0.49729193470369876 0.4618103355336362 -0.49729193470369876
1.692E9 0.4456441803999285 -0.4957473194216885 0.5543558196000715 0.4957473194216885 0.5543558196000715 0.4957473194216885 0.4456441803999285 -0.4957473194216885
1.74175E9 0.42997176254255953 -0.49374016147196703 0.5700282374574404 0.49374016147196703 0.5700282374574404 0.49374016147196703 0.42997176254255953 -0.49374016147196703
1.7915E9 0.4147903388890051 -0.4913115608606433 0.5852096611109949 0.4913115608606433 0.5852096611109949 0.4913115608606433 0.4147903388890051 -0.4913115608606433
1.84125E9 0.4000951211825412 -0.48850001970642126 0.5999048788174588 0.48850001970642126 0.5999048788174588 0.48850001970642126 0.4000951211825412 -0.48850001970642126
1.891E9 0.385879597374528 -0.4853415018953877 0.6141204026254721 0.4853415018953877 0.6141204026254721 0.4853415018953877 0.385879597374528 -0.4853415018953877
1.94075E9 0.37213581993299666 -0.4818695118528215 0.6278641800670034 0.4818695118528215 0.6278641800670034 0.4818695118528215 0.37213581993299666 -0.4818695118528215
1.9905E9 0.3588546628368769 -0.47811518761211247 0.6411453371631232 0.47811518761211247 0.6411453371631232 0.47811518761211247 0.3588546628368769 -0.47811518761211247
2.04025E9 0.34602604927776587 -0.4741074040956512 0.6539739507222341 0.4741074040956512 0.6539739507222341 0.4741074040956512 0.34602604927776587 -0.4741074040956512
2.09E9 0.3336391522338759 -0.4698728831871534 0.6663608477661239 0.4698728831871534 0.6663608477661239 0.4698728831871534 0.3336391522338759 -0.4698728831871534
2.13975E9 0.321682570137519 -0.46543630776710226 0.6783174298624809 0.46543630776710226 0.6783174298624809 0.46543630776710226 0.321682570137519 -0.46543630776710226
2.1895E9 0.31014447984855537 -0.460820437403898 0.6898555201514447 0.460820437403898 0.6898555201514447 0.460820437403898 0.31014447984855537 -0.460820437403898
2.23925E9 0.2990127690886114 -0.4560462238461162 0.7009872309113886 0.4560462238461162 0.7009872309113886 0.4560462238461162 0.2990127690886114 -0.4560462238461162
2.289E9 0.2882751503985592 -0.45113292485068546 0.7117248496014407 0.45113292485068546 0.7117248496014407 0.45113292485068546 0.2882751503985592 -0.45113292485068546
2.33875E9 0.2779192585659917 -0.4460982152132747 0.7220807414340084 0.4460982152132747 0.7220807414340084 0.4460982152132747 0.2779192585659917 -0.4460982152132747
2.3885E9 0.2679327333391999 -0.44095829414659615 0.7320672666608001 0.44095829414659615 0.7320672666608001 0.44095829414659615 0.2679327333391999 -0.44095829414659615
2.43825E9 0.2583032891063877 -0.43572798838554216 0.7416967108936122 0.43572798838554216 0.7416967108936122 0.43572798838554216 0.2583032891063877 -0.43572798838554216
2.488E9 0.2490187730788867 -0.4304208505908088 0.7509812269211134 0.4304208505908088 0.7509812269211134 0.4304208505908088 0.2490187730788867 -0.4304208505908088
2.53775E9 0.2400672133788773 -0.4250492527802568 0.7599327866211225 0.4250492527802568 0.7599327866211225 0.4250492527802568 0.2400672133788773 -0.4250492527802568
2.5875E9 0.2314368582984159 -0.4196244746446641 0.768563141701584 0.4196244746446641 0.768563141701584 0.4196244746446641 0.2314368582984159 -0.4196244746446641
2.63725E9 0.2231162078693839 -0.41415678670620193 0.776883792130616 0.41415678670620193 0.776883792130616 0.41415678670620193 0.2231162078693839 -0.41415678670620193
2.687E9 0.21509403876454417 -0.4086555283579035 0.7849059612354559 0.4086555283579035 0.7849059612354559 0.4086555283579035 0.21509403876454417 -0.4086555283579035
2.73675E9 0.2073594234389531 -0.403129180884107 0.7926405765610467 0.403129180884107 0.7926405765610467 0.403129180884107 0.2073594234389531 -0.403129180884107
2.7865E9 0.19990174431884014 -0.39758543560841325 0.80009825568116 0.39758543560841325 0.80009825568116 0.39758543560841325 0.19990174431884014 -0.39758543560841325
2.83625E9 0.19271070375172836 -0.3920312573497423 0.8072892962482717 0.3920312573497423 0.8072892962482717 0.3920312573497423 0.19271070375172836 -0.3920312573497423
2.886E9 0.18577633034684024 -0.3864729433909093 0.8142236696531598 0.3864729433909093 0.8142236696531598 0.3864729433909093 0.18577633034684024 -0.3864729433909093
2.93575E9 0.1790889822583344 -0.3809161781796622 0.8209110177416657 0.3809161781796622 0.8209110177416657 0.3809161781796622 0.1790889822583344 -0.3809161781796622
2.9855E9 0.17263934789519483 -0.37536608399101545 0.8273606521048051 0.37536608399101545 0.8273606521048051 0.37536608399101545 0.17263934789519483 -0.37536608399101545
3.03525E9 0.16641844448012774 -0.36982726778331637 0.8335815555198725 0.36982726778331637 0.8335815555198725 0.36982726778331637 0.16641844448012774 -0.36982726778331637
3.085E9 0.1604176148250477 -0.36430386447995544 0.8395823851749521 0.36430386447995544 0.8395823851749521 0.36430386447995544 0.1604176148250477 -0.36430386447995544
3.13475E9 0.1546285226421114 -0.3587995769049424 0.8453714773578885 0.3587995769049424 0.8453714773578885 0.3587995769049424 0.1546285226421114 -0.3587995769049424
3.1845E9 0.14904314666621424 -0.35331771259446687 0.8509568533337857 0.35331771259446687 0.8509568533337857 0.35331771259446687 0.14904314666621424 -0.35331771259446687
3.23425E9 0.14365377382689054 -0.3478612176987258 0.8563462261731095 0.3478612176987258 0.8563462261731095 0.3478612176987258 0.14365377382689054 -0.3478612176987258
3.284E9 0.13845299167412903 -0.3424327081792188 0.8615470083258708 0.3424327081792188 0.8615470083258708 0.3424327081792188 0.13845299167412903 -0.3424327081792188
3.33375E9 0.1334336802332797 -0.3370344984968227 0.8665663197667202 0.3370344984968227 0.8665663197667202 0.3370344984968227 0.1334336802332797 -0.3370344984968227
3.3835E9 0.12858900343853186 -0.33166862797558444 0.8714109965614683 0.33166862797558444 0.8714109965614683 0.33166862797558444 0.12858900343853186 -0.33166862797558444
3.43325E9 0.12391240027199779 -0.3263368850165834 0.8760875997280023 0.3263368850165834 0.8760875997280023 0.3263368850165834 0.12391240027199779 -0.3263368850165834
3.483E9 0.11939757571586918 -0.3210408293256167 0.8806024242841307 0.3210408293256167 0.8806024242841307 0.3210408293256167 0.11939757571586918 -0.3210408293256167
3.53275E9 0.11503849160809601 -0.3157818123080051 0.8849615083919041 0.3157818123080051 0.8849615083919041 0.3157818123080051 0.11503849160809601 -0.3157818123080051
3.5825E9 0.11082935747726752 -0.31056099577363033 0.8891706425227327 0.31056099577363033 0.8891706425227327 0.31056099577363033 0.11082935747726752 -0.31056099577363033
3.63225E9 0.10676462141958859 -0.3053793690854757 0.8932353785804115 0.3053793690854757 0.8932353785804115 0.3053793690854757 0.10676462141958859 -0.3053793690854757
3.682E9 0.10283896106979645 -0.3002377648755158 0.8971610389302034 0.3002377648755158 0.8971610389302034 0.3002377648755158 0.10283896106979645 -0.3002377648755158
3.73175E9 0.09904727470834372 -0.29513687344282835 0.9009527252916564 0.29513687344282835 0.9009527252916564 0.29513687344282835 0.09904727470834372 -0.29513687344282835
3.7815E9 0.09538467253898524 -0.2900772559402978 0.9046153274610146 0.2900772559402978 0.9046153274610146 0.2900772559402978 0.09538467253898524 -0.2900772559402978
3.83125E9 0.09184646816389692 -0.28505935644827957 0.908153531836103 0.28505935644827957 0.908153531836103 0.28505935644827957 0.09184646816389692 -0.28505935644827957
3.881E9 0.0884281702774472 -0.2800835130260596 0.9115718297225529 0.2800835130260596 0.9115718297225529 0.2800835130260596 0.0884281702774472 -0.2800835130260596
3.93075E9 0.08512547459463898 -0.2751499678249145 0.9148745254053611 0.2751499678249145 0.9148745254053611 0.2751499678249145 0.08512547459463898 -0.2751499678249145
3.9805E9 0.08193425602589324 -0.27025887634000245 0.9180657439741067 0.27025887634000245 0.9180657439741067 0.27025887634000245 0.08193425602589324 -0.27025887634000245
4.03025E9 0.07885056110617816 -0.26541031587219976 0.921149438893822 0.26541031587219976 0.921149438893822 0.26541031587219976 0.07885056110617816 -0.26541031587219976
4.08E9 0.07587060068339574 -0.26060429326532375 0.9241293993166044 0.26060429326532375 0.9241293993166044 0.26060429326532375 0.07587060068339574 -0.26060429326532375
4.12975E9 0.07299074286834692 -0.25584075197890793 0.9270092571316529 0.25584075197890793 0.9270092571316529 0.25584075197890793 0.07299074286834692 -0.25584075197890793
4.1795E9 0.07020750624644173 -0.2511195785518307 0.9297924937535582 0.2511195785518307 0.9297924937535582 0.2511195785518307 0.07020750624644173 -0.2511195785518307
4.22925E9 0.06751755334953703 -0.24644060850758848 0.9324824466504631 0.24644060850758848 0.9324824466504631 0.24644060850758848 0.06751755334953703 -0.24644060850758848
4.279E9 0.06491768438482215 -0.24180363174784986 0.9350823156151781 0.24180363174784986 0.9350823156151781 0.24180363174784986 0.06491768438482215 -0.24180363174784986
4.32875E9 0.06240483121648678 -0.23720839747709327 0.9375951687835132 0.23720839747709327 0.9375951687835132 0.23720839747709327 0.06240483121648678 -0.23720839747709327
4.3785E9 0.05997605159495546 -0.23265461869760184 0.9400239484050444 0.23265461869760184 0.9400239484050444 0.23265461869760184 0.05997605159495546 -0.23265461869760184
4.42825E9 0.057628523627722424 -0.22814197631083585 0.9423714763722777 0.22814197631083585 0.9423714763722777 0.22814197631083585 0.057628523627722424 -0.22814197631083585
4.478E9 0.055359540485245884 -0.2236701228582216 0.9446404595147543 0.2236701228582216 0.9446404595147543 0.2236701228582216 0.055359540485245884 -0.2236701228582216
4.52775E9 0.053166505334927346 -0.21923868593164414 0.9468334946650728 0.21923868593164414 0.9468334946650728 0.21923868593164414 0.053166505334927346 -0.21923868593164414
4.5775E9 0.05104692649589462 -0.21484727128141204 0.9489530735041056 0.21484727128141204 0.9489530735041056 0.21484727128141204 0.05104692649589462 -0.21484727128141204
4.62725E9 0.048998412807103396 -0.2104954656471477 0.9510015871928965 0.2104954656471477 0.9510015871928965 0.2104954656471477 0.048998412807103396 -0.2104954656471477
4.677E9 0.047018669201154134 -0.20618283933492995 0.9529813307988458 0.20618283933492995 0.9529813307988458 0.20618283933492995 0.047018669201154134 -0.20618283933492995
4.72675E9 0.045105492476178316 -0.2019089485620684 0.9548945075238218 0.2019089485620684 0.9548945075238218 0.2019089485620684 0.045105492476178316 -0.2019089485620684
4.7765E9 0.04325676725816385 -0.1976733375891024 0.956743232741836 0.1976733375891024 0.956743232741836 0.1976733375891024 0.04325676725816385 -0.1976733375891024
4.82625E9 0.04147046214615549 -0.19347554065697903 0.9585295378538444 0.19347554065697903 0.9585295378538444 0.19347554065697903 0.04147046214615549 -0.19347554065697903
4.876E9 0.039744626032870975 -0.1893150837458583 0.9602553739671291 0.1893150837458583 0.9602553739671291 0.1893150837458583 0.039744626032870975 -0.1893150837458583
4.92575E9 0.03807738459341605 -0.18519148617062706 0.961922615406584 0.18519148617062706 0.961922615406584 0.18519148617062706 0.03807738459341605 -0.18519148617062706
4.9755E9 0.03646693693494264 -0.18110426202693317 0.963533063065057 0.18110426202693317 0.963533063065057 0.18110426202693317 0.03646693693494264 -0.18110426202693317
5.02525E9 0.03491155240028159 -0.17705292150039917 0.9650884475997186 0.17705292150039917 0.9650884475997186 0.17705292150039917 0.03491155240028159 -0.17705292150039917
5.075E9 0.033409567518781935 -0.17303697205061844 0.9665904324812182 0.17303697205061844 0.9665904324812182 0.17303697205061844 0.033409567518781935 -0.17303697205061844
5.12475E9 0.0319593830977997 -0.16905591948056523 0.9680406169022004 0.16905591948056523 0.9680406169022004 0.16905591948056523 0.0319593830977997 -0.16905591948056523
5.1745E9 0.03055946144849883 -0.16510926890116107 0.9694405385515011 0.16510926890116107 0.9694405385515011 0.16510926890116107 0.03055946144849883 -0.16510926890116107
5.22425E9 0.029208323739851744 -0.16119652559992784 0.9707916762601485 0.16119652559992784 0.9707916762601485 0.16119652559992784 0.029208323739851744 -0.16119652559992784
5.274E9 0.027904547474953346 -0.15731719582191253 0.9720954525250467 0.15731719582191253 0.9720954525250467 0.15731719582191253 0.027904547474953346 -0.15731719582191253
5.32375E9 0.02664676408398996 -0.15347078747038534 0.97335323591601 0.15347078747038534 0.97335323591601 0.15347078747038534 0.02664676408398996 -0.15347078747038534
5.3735E9 0.025433656628430442 -0.14965681073418716 0.9745663433715696 0.14965681073418716 0.9745663433715696 0.14965681073418716 0.025433656628430442 -0.14965681073418716
5.42325E9 0.02426395761123019 -0.1458747786480299 0.97573604238877 0.1458747786480299 0.97573604238877 0.1458747786480299 0.02426395761123019 -0.1458747786480299
5.473E9 0.023136446888058538 -0.14212420759152808 0.9768635531119415 0.14212420759152808 0.9768635531119415 0.14212420759152808 0.023136446888058538 -0.14212420759152808
5.52275E9 0.022049949674775356 -0.13840461773225976 0.9779500503252249 0.13840461773225976 0.9779500503252249 0.13840461773225976 0.022049949674775356 -0.13840461773225976
5.5725E9 0.021003334646591394 -0.13471553341771006 0.9789966653534086 0.13471553341771006 0.9789966653534086 0.13471553341771006 0.021003334646591394 -0.13471553341771006
5.62225E9 0.01999551212455298 -0.13105648352055488 0.980004487875447 0.13105648352055488 0.980004487875447 0.13105648352055488 0.01999551212455298 -0.13105648352055488
5.672E9 0.019025432345186746 -0.1274270017413608 0.9809745676548133 0.1274270017413608 0.9809745676548133 0.1274270017413608 0.019025432345186746 -0.1274270017413608
5.72175E9 0.018092083809333807 -0.12382662687244934 0.9819079161906663 0.12382662687244934 0.9819079161906663 0.12382662687244934 0.018092083809333807 -0.12382662687244934
5.7715E9 0.01719449170638534 -0.12025490302635301 0.9828055082936146 0.12025490302635301 0.9828055082936146 0.12025490302635301 0.01719449170638534 -0.12025490302635301
5.82125E9 0.016331716410310546 -0.11671137983201102 0.9836682835896892 0.11671137983201102 0.9836682835896892 0.11671137983201102 0.016331716410310546 -0.11671137983201102
5.871E9 0.015502852044038317 -0.11319561260158983 0.9844971479559615 0.11319561260158983 0.9844971479559615 0.11319561260158983 0.015502852044038317 -0.11319561260158983
